Circuit: * C:\Users\beagl\OneDrive\Documents\College Classes\ENGR357 - Engineering Electronics 2\ENGR357_Receiver_Design\engr357-receiver-design\spice\xstal_ImpedanceMatching.asc

WARNING: Less than two connections to node OUT.  This node is used by R13.
Instance "m:u3:2": Length shorter than recommended for a level 3 MOSFET.
Instance "m:u2:2": Length shorter than recommended for a level 3 MOSFET.
Direct Newton iteration for .op point succeeded.
Semiconductor Device Operating Points:
                        --- Diodes ---
Name:    d:u3:bd     d:u2:bd
Model:   u3:dbd      u2:dbd
Id:     -4.16e-15   -1.14e-11
Vd:     -9.46e-06   -1.33e+00
Req:     2.58e+09    1.00e+12
CAP:     6.90e-10    4.86e-10

                        --- MOSFET Transistors ---
Name:          m1        m:u3:2      m:u3:1      m:u2:2      m:u2:1
Model:        nmos       u3:pmos     u3:nmos     u2:pmos     u2:nmos
Id:          5.05e-05   -3.17e-17    8.91e-04   -1.34e-12    6.35e-02
Vgs:         2.25e+00    4.46e+00    4.46e+00    1.33e+00    1.33e+00
Vds:         4.50e+00    0.00e+00    9.46e-06    0.00e+00    1.33e+00
Vbs:         0.00e+00    2.28e-05    0.00e+00    1.33e+00    0.00e+00
Vth:         0.00e+00   -1.43e+00    1.30e+00   -1.77e+00    1.30e+00
Vdsat:       2.25e+00   -0.00e+00    2.26e+00   -0.00e+00    5.17e-02
Gm:          4.49e-05    0.00e+00    2.78e-04    0.00e+00    1.73e+00
Gds:         0.00e+00    0.00e+00    9.60e+01    0.00e+00    2.96e-03
Gmb:         0.00e+00    0.00e+00    2.15e-04    0.00e+00    1.33e+00
Cbd:         0.00e+00    0.00e+00    0.00e+00    0.00e+00    0.00e+00
Cbs:         0.00e+00    0.00e+00    0.00e+00    0.00e+00    0.00e+00
Cgsov:       0.00e+00    0.00e+00    0.00e+00    0.00e+00    0.00e+00
Cgdov:       0.00e+00    0.00e+00    0.00e+00    0.00e+00    0.00e+00
Cgbov:       0.00e+00    0.00e+00    0.00e+00    0.00e+00    0.00e+00
Cgs:         0.00e+00    0.00e+00    6.90e-10    3.68e-10    9.20e-10
Cgd:         0.00e+00    0.00e+00    6.90e-10    0.00e+00    0.00e+00
Cgb:         0.00e+00    5.52e-10    0.00e+00    0.00e+00    0.00e+00



Date: Tue Feb 13 17:48:00 2024
Total elapsed time: 0.142 seconds.

tnom = 27
temp = 27
method = trap
totiter = 9
traniter = 0
tranpoints = 0
accept = 0
rejected = 0
matrix size = 25
fillins = 3
solver = Normal
Matrix Compiler1: 1.75 KB object code size
Matrix Compiler2: 2.18 KB object code size
